#Digilent WaveForms Network Analyzer - Bode
#Device Name: Discovery2
#Serial Number: SN:210321A19EB6
#Date Time: 2016-12-07 10:35::39.545

Frequency (Hz),Channel 1 Magnitude (dB),Channel 2 Magnitude (dB),Channel 2 Phase (°)
1.0120000000000005,-0.00086662459014499535,-6.0750149812759329,-4.4104225672577542
1.0308278959420947,-0.00035154674822587145,-6.0765765911942973,-4.4905216145399152
1.0500060781150256,-0.00037042235686644625,-6.0785607014033358,-4.5742818312468216
1.0695410634681057,-9.4839036587454249e-06,-6.0805985296350755,-4.6561375372570097
1.0894394901961439,-0.00011669319903233075,-6.0822502380534074,-4.7435150454433455
1.1097081199951768,-0.0002948429080283202,-6.0838110531439806,-4.8287057455822122
1.1303538403601634,-0.00042917966779725084,-6.0858065949974787,-4.9200380134802373
1.151383666925428,-0.00038650694601064639,-6.0876822560282022,-5.0076503762719256
1.1728047458486484,4.9864353940758669e-05,-6.0898315870285389,-5.1010853249036074
1.1946243562391958,-3.0411242620016316e-05,-6.0917159302124944,-5.1919527899847253
1.2168499126316494,-4.8682299108166396e-05,-6.0937923297305954,-5.2877018755147702
1.2394889675053404,-0.00024224515670936248,-6.0959406580562092,-5.384915114102526
1.2625492138507599,0.00011027513144616799,-6.0980186056382628,-5.4804067012487394
1.2860384877837194,0.0002373567027875277,-6.1008011180215549,-5.5815626035508217
1.3099647712081481,0.00028180797187953894,-6.1028506442212329,-5.6826925289048944
1.3343361945284213,0.00012805841545136305,-6.1056601582047474,-5.7861494342535025
1.3591610394121676,0.00013299977483672684,-6.1081129045777995,-5.8920180696219262
1.3844477416044612,2.1709162837990042e-05,-6.1104932512910448,-5.9960824970104198
1.4102048937943783,0.00017317087631574523,-6.1125141343010601,-6.1058522243302917
1.4364412485348867,0.00029516853470427722,-6.1158635291333097,-6.2193494743961111
1.4631657212170477,0.00050969998197535505,-6.1188321559492334,-6.3312300542387874
1.4903873930995712,-0.00024850688583535088,-6.1214056549881377,-6.44656270917109
1.5181155143947176,-2.6483543746051006e-05,-6.1247554866562375,-6.5626104179763303
1.5463595074116174,1.7565152548432665e-05,-6.1281824724965182,-6.6819854193410748
1.5751289697580744,-0.00039168920683179878,-6.1309698261378731,-6.802810384394661
1.604433677601933,-0.00033046201202206982,-6.1341355200807435,-6.9251368181832191
1.6342835889931195,-0.0005291827115208918,-6.1369479803018994,-7.0521179781436842
1.6646888472475003,-0.00025700123721647284,-6.1411268427686894,-7.1788032914221702
1.6956597843936887,-0.00030378544660616421,-6.1443063448744102,-7.3101461729456219
1.7272069246839623,-0.00040998680909405726,-6.1480051543529379,-7.4399056174844986
1.7593409881705395,-4.9968393253372059e-05,-6.1522142273971658,-7.5744143811144795
1.7920728943483422,-0.0001180782101247485,-6.155929090097068,-7.7135801418812804
1.8254137658655738,-0.00012562892747748942,-6.1602249365778281,-7.8512542441777669
1.8593749323033046,-0.0013248669091722853,-6.163204531758498,-7.9942723995460909
1.8939679340253854,-0.00031339040928804777,-6.1680303521746982,-8.1370425606754395
1.9292045260999835,-0.00035635459213231841,-6.1722285493896258,-8.2834918179189572
1.9650966822940843,-0.00034029303543480594,-6.177487958885135,-8.4318670595263683
2.0016565991422937,-0.00041254938813493479,-6.1821153139636085,-8.5819058882181452
2.0388967000913625,-0.00024768980512411592,-6.1868284543174195,-8.738656671558644
2.0768296397217969,-0.00020633453249559796,-6.192067971474378,-8.8969726854235773
2.1154683080480212,-5.6224074118789938e-05,-6.1970164569753514,-9.0543441814270125
2.1548258348985443,-0.00039942657792805804,-6.201746404929672,-9.215804787587075
2.1949155943776018,-4.1939051864003075e-05,-6.2076602078064136,-9.3819896349385061
2.2357512094098366,-0.00029564769539340736,-6.2133281854944533,-9.5508562427435066
2.2773465563695008,6.5008139774925709e-05,-6.2192808611077721,-9.7192678536302282
2.3197157697957969,-7.4092520461810905e-05,-6.2251014395866413,-9.8946399739589594
2.3628732471959455,-0.00031815613363998812,-6.2305488913869684,-10.070595762420027
2.4068336539376118,-0.00030686732350824336,-6.2374986767469398,-10.247723358451779
2.4516119282323436,-9.4356848847926996e-05,-6.2446051482428446,-10.432969675781592
2.4972232862117463,-0.0004611428177244243,-6.2503914866707246,-10.618906699731852
2.5436832270980805,-0.0001640919066998105,-6.2576155989690152,-10.80943828729977
2.5910075384710578,-0.00024851524277908686,-6.2649060217189492,-10.996568842249062
2.6392123016326368,-0.00010383760285050696,-6.2724291861312835,-11.192721934373068
2.6883138970716036,-0.00031259231018958809,-6.2800796084724722,-11.392424860076375
2.738329010029855,-0.00040429000299107957,-6.2879679420625081,-11.594782855509564
2.7892746361722072,-0.0002882904565823994,-6.2963320230248589,-11.799200709273492
2.8411680873617065,-0.00052218857883817686,-6.3046890371226052,-12.00622031529133
2.8940269975423867,-0.00013241111285630867,-6.3136132262573348,-12.217821842309476
2.9478693287314575,-8.2887943090564811e-05,-6.3227934598046263,-12.434565800841071
3.002713377123007,-0.00024212168410770368,-6.331793845060707,-12.652613804053942
3.0585777793052267,1.513631120084122e-05,-6.3416639748035486,-12.874659308118453
3.1154815185933304,0.00087014584166844307,-6.3526372853474413,-13.100571078221279
3.1734439314802803,-0.0008950086217738816,-6.3605501371934405,-13.330274872739437
3.2324847142075384,-0.00051957827447311354,-6.3715843194500383,-13.557494816194819
3.2926239294580424,-0.00051556202693256946,-6.3817683854607505,-13.795544735868091
3.3538820131737395,-0.00087620809987362181,-6.3927698535012931,-14.034823009580336
3.4162797814999228,-0.00088370296284257064,-6.4045582152009413,-14.274958268732036
3.4798384378587777,-0.00061284776166658258,-6.4165114807736945,-14.52451686634565
3.544579580154537,-0.00093835225359618891,-6.4284217670556139,-14.77622272523854
3.6105252081126618,-0.00073304415203038781,-6.4409432049971755,-15.029383232295416
3.6776977307556007,-0.00084103376567990038,-6.4533202200966953,-15.291489889330961
3.7461199740175997,-0.0010263335668982876,-6.4668198902420206,-15.554316005028682
3.8158151885012006,-0.00094654117288485982,-6.4810111256679503,-15.819683275480713
3.8868070573780429,-0.00083153593931210986,-6.4953853512391344,-16.090073562104308
3.9591197044366551,-0.00092501233103764143,-6.5096463367064104,-16.367148533148921
4.0327777022799642,-0.0007358352982034629,-6.5248212443328022,-16.644197167571065
4.1078060806753447,-0.00074723236136021228,-6.5402524153615618,-16.927046700084333
4.1842303350599872,-0.00066167918482978427,-6.5561076062571892,-17.214142819600809
4.262076435204512,-0.00070722592637387845,-6.5729140073089507,-17.507682438700115
4.3413708340378045,-0.00059655993918728781,-6.5895763746947535,-17.798847919525102
4.4221404766359305,-0.00065273415239363371,-6.6069663365162654,-18.099824001657993
4.5044128093784499,-0.00064462662647766188,-6.6252070859313781,-18.400668252234055
4.5882157892749023,-0.00087102670478879428,-6.6434276244111512,-18.711094603893272
4.6735778934649677,-0.00073351134804919445,-6.6625345118730959,-19.025002893927066
4.7605281288952312,-0.00080023338864612984,-6.6823373921136398,-19.338546289714998
4.8490960421761224,-0.00070557879590545331,-6.7025649820607427,-19.659788404955862
4.9393117296220801,-0.00071572883278081317,-6.7232348789324314,-19.983274073023054
5.031205847478696,-0.00038519101179771168,-6.7451978949744085,-20.310385728441688
5.1248096223399413,-0.0005935894036103274,-6.7672019316175769,-20.64409188547171
5.220154861759374,-0.0008555825241164047,-6.7898684300202845,-20.983711936437075
5.3172739650586065,-0.00063971859586400782,-6.8132743834277365,-21.323910766226405
5.4161999343369969,-0.00064678892997364185,-6.8376943321953938,-21.667315242629968
5.5169663856860831,-0.00064715812021916579,-6.8621835649395475,-22.018333291279959
5.6196075606126943,-0.00051770719941913741,-6.8883502972949842,-22.37370385747343
5.7241583376745737,-0.00059812855130059715,-6.9142510130239625,-22.732649811819698
5.8306542443324929,-0.00060657271679988398,-6.9408022761674086,-23.094829934131681
5.9391314690228327,-0.00068991626236195925,-6.9682264258999904,-23.459501799208027
6.0496268734548284,-0.00085225205962686883,-6.9968229710476884,-23.831031660782074
6.1621780051365524,-0.00070760159009039753,-7.0259346880814029,-24.20578147182691
6.2768231101339573,-0.0008144195407124693,-7.0561901361343704,-24.58317508522633
6.3936011460672919,-0.00089143872123002268,-7.0868307386044558,-24.966771288645845
6.5125517953493253,-0.00081432788456230947,-7.1185242678014937,-25.353037977503192
6.6337154786698163,-0.00098537287577858787,-7.1511222825641401,-25.743612026843735
6.7571333687309387,-0.0011002443209254371,-7.1847096502996388,-26.139860119557092
6.8828474042381718,-0.0010037161817248663,-7.2188743106746154,-26.539954273471992
7.0109003041515221,-0.00094371743621734518,-7.2544321952781541,-26.94198698453819
7.1413355822018874,-0.00083793002426176683,-7.2905304400176609,-27.346117067117248
7.2741975616774539,-0.00077259712184759959,-7.3274841986289942,-27.759060061779408
7.4095313904852595,-0.00086469283424062192,-7.3648873397854606,-28.169890983882368
7.5473830564929063,-0.00092451166056047853,-7.4035222372147871,-28.585121426076299
7.6877994031557257,-0.00074686672460858494,-7.4441130254627028,-29.006429638039116
7.8308281454346895,-0.00074792940887565527,-7.4847807262702117,-29.43216493820595
7.9765178860104573,-0.0007788165694454978,-7.5269756446580862,-29.855493541279493
8.1249181317990526,-0.00089910165450554538,-7.5696350505467516,-30.287070709995078
8.2760793107748913,-0.00080253582203840669,-7.6141710124233333,-30.72186919997575
8.4300527891066999,-0.00079466270083636498,-7.6593315770968706,-31.158986298662924
8.586890888612297,-0.00095959405298221565,-7.705293953306656,-31.59776252200902
8.7466469045381068,-0.00092644414618902118,-7.7525391566515243,-32.042465438605952
8.909375123669415,-0.0011533809060002391,-7.800477781255287,-32.487346982253086
9.0751308427776483,-0.001048601888765475,-7.8498498907393159,-32.933988898563847
9.2439703874107586,-0.0011088369997193591,-7.9003029125401518,-33.383153104297477
9.4159511310332604,-0.00109404182592539,-7.9518850827849574,-33.838032862984008
9.5911315145223313,-0.00073118156228590611,-8.0047396147195489,-34.290678399552448
9.7695710660266588,-0.00073759004454952161,-8.0586362487878525,-34.750507781129933
9.9513304211946885,-0.00087956370369949059,-8.1131481945353769,-35.20808461843405
10.136471343779313,-0.00087733165262370342,-8.1695381442266992,-35.670165819670345
10.325056746625863,-0.00066125778688499916,-8.2266427221268259,-36.135035890567472
10.51715071305045,-0.00091221586126415024,-8.2846163267293012,-36.599400055613124
10.712818518616317,-0.00094724118806532713,-8.344061243958155,-37.065817867476554
10.912126653314973,-0.00070530231334727932,-8.4054485238558687,-37.535950892795192
11.115142844160408,-0.00070219379606211536,-8.4672319630156085,-38.003841873803587
11.321936078203247,-0.00082018929516578019,-8.5301113982075627,-38.475461169284259
11.532576625973473,-0.00071791751551991299,-8.5946491201180457,-38.951046355345824
11.747136065358905,-0.00043028456597128407,-8.6597710359651021,-39.424133535853663
11.965687305928284,-0.00073126699163343157,-8.7265003760522522,-39.89554257041307
12.18830461370659,-0.0005363446727996888,-8.7946069207458475,-40.369232357512132
12.415063636411562,-0.00063765927770761054,-8.8639771787437205,-40.846188890169181
12.646041429159409,-0.00077525186870285848,-8.9341014575701578,-41.321281663108557
12.881316480649174,-0.00078775733292222574,-9.0064467087645248,-41.796528824502523
13.120968739833804,-0.00071199608783650218,-9.0793172743657546,-42.272452897650531
13.365079643087835,-0.0007753568435868674,-9.1530717693111026,-42.748188203304792
13.613732141880172,-0.0007013607277095989,-9.2280080123585542,-43.225992970260911
13.86701073096207,-0.00056029456706936437,-9.3050593061274238,-43.700453763855428
14.125001477079111,-0.0007749824312956831,-9.3826606335601141,-44.17441756033466
14.38779204821785,-0.00069885568078199996,-9.4618727248842465,-44.652729158715005
14.655471743396035,-0.00083142349829811639,-9.5415141661408711,-45.127571232469698
14.928131523007677,-0.00091963900687376391,-9.6226956024873633,-45.600285351992717
15.205864039732056,-0.00095104938055153606,-9.7047320464382842,-46.070026369879791
15.488763670018345,-0.0009470678284120473,-9.787756731899524,-46.544086443588292
15.776926546155481,-0.00085696213121076779,-9.8722119381643392,-47.015313896138942
16.070450588939192,-0.00078921294346680497,-9.9586582980123133,-47.48657949657256
16.369435540946206,-0.00071491615104372062,-10.045895209227179,-47.951774346398103
16.673983000428194,-0.00091805253719749031,-10.133625730617899,-48.41525568792764
16.984196455835601,-0.00096263104274619334,-10.223121074896021,-48.88306587576659
17.300181320984375,-0.0011521186098880313,-10.313803346337469,-49.343918785743966
17.622044970876548,-0.0010223603069227183,-10.405173386399776,-49.807311714022077
17.949896778187387,-0.0011119918049247465,-10.498296920199667,-50.263451103686421
18.283848150431506,-0.0011404707097969523,-10.591434742169163,-50.72345625109282
18.62401256782022,-0.0010677914567748137,-10.685674587764263,-51.17688924466966
18.970505621823357,-0.0012449232805593602,-10.781916002215134,-51.627915869075721
19.323445054448463,-0.0012441897260321013,-10.878799952728341,-52.080454709449199
19.68295079825079,-0.0011705817181459828,-10.976844428869633,-52.529622827434451
20.049145017087575,-0.00087454825931560409,-11.075108920081075,-52.966709766108465
20.42215214763074,-0.00096371807430285393,-11.175277550978134,-53.411295406246296
20.802098941651703,-0.00089683775574870737,-11.276417646121864,-53.852510818508399
21.189114509092974,-0.0016597635083832819,-11.378012642797341,-54.290638314371684
21.583330361941144,-0.0011754100601235979,-11.481416495191832,-54.724468719947176
21.984880458915921,-0.0011858383811394722,-11.58603022140719,-55.156809243842183
22.393901250990872,-0.0011103647867467014,-11.691218039589991,-55.58210000797969
22.810531727760829,-0.0012221507632027367,-11.796859986375877,-56.009464337763973
23.234913464672019,-0.0010688542869134673,-11.903211965607438,-56.430365354398347
23.667190671130943,-0.0013462208531652502,-12.011155854745699,-56.848340576189571
24.10751023950818,-0.0012029617019694678,-12.119446685874449,-57.264321015134392
24.556021795054061,-0.0012737857361606612,-12.229077288213148,-57.679892707947957
25.012877746742873,-0.0012248761234861054,-12.33933897712606,-58.087694183416431
25.478233339063035,-0.0013940997449921296,-12.449678416619141,-58.495508560113421
25.952246704770818,-0.0013298086112840113,-12.562211424883349,-58.896702433166695
26.435078918625575,-0.0012481053721153516,-12.675473794924406,-59.295939612999575
26.926894052124524,-0.0012004966620643215,-12.788819444874719,-59.689265958117147
27.427859229256143,-0.0010714774980382044,-12.901909519616954,-60.085184301626157
27.938144683290577,-0.0012494676815838089,-13.017909444270682,-60.467553856249289
28.457923814626714,-0.001470595225103485,-13.133997544657239,-60.855833001037531
28.987373249715489,-0.00090734243807190362,-13.250687640819327,-61.23692607181485
29.526672901079447,-0.0012535644209752835,-13.368301067373986,-61.615361451601046
30.076006028448766,-0.0013206559780584918,-13.486252280904612,-61.990598262047683
30.635559301035197,-0.0011875461699029307,-13.603950344209068,-62.363537787457545
31.205522860963772,-0.0013381815688112112,-13.724482502683644,-62.730465213858182
31.786090387885615,-0.0010233492464581967,-13.844607306323544,-63.092497578873854
32.377459164791858,-0.00088801762251363076,-13.965690303850034,-63.446886649699067
32.979830145052865,-0.00087383755337836551,-14.086928207328747,-63.804829742296207
33.593408020704018,-0.0014310423635987941,-14.209453867345967,-64.158795626020321
34.218401292002611,-0.0011369993393539448,-14.331905729367163,-64.505952339744482
34.855022338277919,-0.00086043568480519605,-14.454411411884893,-64.851263530031147
35.503487490100596,-0.0009432818083908339,-14.579814122094202,-65.192650610160428
36.164017102793302,-0.0010158351036433156,-14.704247937672637,-65.529542122100864
36.836835631310649,-0.00089166033489932232,-14.82885108112524,-65.865180461420024
37.522171706510562,-0.0010013025625127416,-14.955663259623664,-66.19296729756789
38.220258212846154,-0.00075171763074845894,-15.081527482226591,-66.515524645042149
38.931332367501732,-0.00087388410909768261,-15.209307121932223,-66.842265063984627
39.655635801002177,-0.00082438387956742252,-15.338760329930363,-67.154805935014508
40.393414639321165,-0.0008855172605572901,-15.465901139278269,-67.473000039291165
41.144919587517862,-0.0010449731187994495,-15.594192679933945,-67.786722718846832
41.910406014928512,-0.0011581956688540968,-15.724124160604839,-68.094902974174161
42.690134041944368,-0.0015613518805768739,-15.853816074146238,-68.401358944974618
43.484368628402663,-0.0011721945652130334,-15.984710572834427,-68.704312683383151
44.293379663623298,0.00081621949666468559,-16.118087012792586,-68.977424714341026
45.117442058119671,0.000431394567384869,-16.248863312518935,-69.283151595068858
45.956835837016698,8.5389005607899241e-05,-16.38091747999362,-69.5682373348277
46.81184623520565,-0.004013115074853902,-16.505142825925134,-69.87421093763578
47.682763794270691,0.0016926830717305891,-16.639598706429584,-70.11984232203568
48.56988446121732,-0.0013184595002943579,-16.769462054814028,-70.411931963342653
49.473509689038814,-0.0046163174550079063,-16.906343549110424,-70.731729703465675
50.393946539152864,-0.00096401205105102299,-17.046216550526502,-70.970612149211263
51.3315077857444,-0.0040851504348716839,-17.174791457112626,-71.262749172825906
52.286512022049543,0.00040070200358389399,-17.315092360755052,-71.489385068666408
53.259283768616996,0.0016752696175482253,-17.444766795896683,-71.724408711956215
54.250153583583398,-0.0025730113135534307,-17.575020540274025,-72.0108385598148
55.259458175000738,-0.0020881429322238349,-17.710940277141514,-72.261574511464659
56.287540515253141,-0.0033471662081847641,-17.851870597465922,-72.54032839465529
57.334749957602554,0.00029895490271117191,-17.987400126328453,-72.742803115567256
58.401442354902748,-0.0018892826584426315,-18.122762276121911,-73.01646442750264
59.487980180521653,0.00031256930999215679,-18.260171341904968,-73.240245542702212
60.594732651513972,-0.00074489229364671896,-18.396627293779577,-73.486050016200679
61.722075854084864,-0.0014140222520678629,-18.538176064701965,-73.730811567030457
62.870392871387985,-0.0014112218657834439,-18.67236532374395,-73.965351092995817
64.04007391370132,-0.0015568673226824268,-18.812146498210236,-74.195348741728594
65.231516451024689,-0.0011666898244492422,-18.951668636475095,-74.406167706436733
66.445125348144174,-0.001166260160582355,-19.090166558222617,-74.645698910052701
67.681313002209663,-0.0012771727204385387,-19.226426116437413,-74.864582071833283
68.940499482871644,-0.0011056318916584989,-19.369620880628791,-75.072090371244798
70.223112675025305,-0.0011666196955604541,-19.50985587401156,-75.284734580859379
71.529588424210502,-0.0013090119257177805,-19.645748693487807,-75.496040704954382
72.860370684716301,-0.0010103024444772038,-19.786109309046946,-75.713373146879917
74.215911670441869,-0.00088961715980358886,-19.925019691650647,-75.914765695645031
75.596672008563147,-0.00083122798709945808,-20.068972426049854,-76.114301569223358
77.003120896059073,-0.0012692838528584787,-20.209056961614309,-76.318024848967696
78.435736259149579,-0.0013932647927034788,-20.34921859076929,-76.521700277497644
79.89500491569973,-0.0013818821953676258,-20.489757835299717,-76.695640401245555
81.381422740646343,-0.0011212956277831089,-20.631432630486159,-76.899197247211134
82.895494834500496,-0.0015486358600153981,-20.773938024786386,-77.083949517288147
